# SNGIL DDC Modbus íŒ¨í‚· í…ŒìŠ¤íŠ¸ ê°€ì´ë“œ

## ê°œìš”

ì´ ë¬¸ì„œëŠ” SNGIL DDC ì»¨íŠ¸ë¡¤ëŸ¬ì™€ì˜ Modbus RTU í†µì‹ ì—ì„œ ì‚¬ìš©ë˜ëŠ” ì‹¤ì œ íŒ¨í‚·ì„ ì •ë¦¬í•œ ê²ƒì…ë‹ˆë‹¤. í…ŒìŠ¤íŠ¸ ë° ë””ë²„ê¹… ëª©ì ìœ¼ë¡œ ì‚¬ìš©í•  ìˆ˜ ìˆìŠµë‹ˆë‹¤.

## Modbus RTU í”„ë ˆì„ êµ¬ì¡°

```
[Slave ID] [Function Code] [Data] [CRC-16]
   1 Byte     1 Byte      N Bytes   2 Bytes
```

**CRC-16 ê³„ì‚°:**

- ë‹¤í•­ì‹: 0x8005 (x^16 + x^15 + x^2 + 1)
- ì´ˆê¸°ê°’: 0xFFFF
- XOR ì¶œë ¥: 0x0000
- ì…ë ¥/ì¶œë ¥ ë°˜ì „: Yes

## ğŸ“Œ Modbus ì£¼ì†Œ ì²´ê³„

### 1-based vs 0-based Addressing

**1-based addressing (ë§¤ë‰´ì–¼/ë¬¸ì„œ):**

- ì£¼ì†Œê°€ 1ë¶€í„° ì‹œì‘ (ì˜ˆ: 40001, 40002, 40003...)
- HMI, ë§¤ë‰´ì–¼, ë¬¸ì„œì—ì„œ ì£¼ë¡œ ì‚¬ìš©
- ì§ê´€ì ì´ê³  ì´í•´í•˜ê¸° ì‰¬ì›€

**0-based addressing (Modbus í”„ë¡œí† ì½œ):**

- ì£¼ì†Œê°€ 0ë¶€í„° ì‹œì‘ (ì˜ˆ: 0x0000, 0x0001, 0x0002...)
- ì‹¤ì œ Modbus RTU í”„ë ˆì„ì—ì„œ ì‚¬ìš©
- Modbus í”„ë¡œí† ì½œ í‘œì¤€

**ë³€í™˜ ê³µì‹:**

```
Modbus í”„ë ˆì„ ì£¼ì†Œ = ë¬¸ì„œ ì£¼ì†Œ - 1
```

### ì£¼ì†Œ ë§¤í•‘ í…Œì´ë¸”

| ê¸°ëŠ¥           | 1-based ì£¼ì†Œ | 0-based ì£¼ì†Œ | 16ì§„ìˆ˜      | ì„¤ëª…           |
| -------------- | ------------ | ------------ | ----------- | -------------- |
| **DO ì œì–´**    | 352-367      | 351-366      | 0x15F-0x16E | DO ëª¨ë“œ ì„¤ì •   |
| **DO ì œì–´**    | 368-383      | 367-382      | 0x16F-0x17E | DO ìˆ˜ë™ ì œì–´   |
| **DO ìƒíƒœ**    | 821-836      | 820-835      | 0x334-0x343 | DO ì¶œë ¥ ìƒíƒœ   |
| **ê³„ì ˆ ì„¤ì •**  | 327          | 326          | 0x146       | ê³„ì ˆ ì„ íƒ      |
| **ì›”ë³„ ì„¤ì •**  | 328-339      | 327-338      | 0x147-0x152 | ì›”ë³„ í•˜ì ˆê¸°    |
| **ìë™ íŒë‹¨**  | 340-351      | 339-350      | 0x153-0x15E | ì›”ë³„ ê³„ì ˆ ìƒíƒœ |
| **DI ê¸°ëŠ¥**    | 404-419      | 403-418      | 0x193-0x1A2 | DI í™œì„±í™”      |
| **DI ë”œë ˆì´**  | 33-35        | 32-34        | 0x20-0x22   | DI ë”œë ˆì´íƒ€ì„  |
| **DI ìƒíƒœ**    | 100-115      | 99-114       | 0x63-0x72   | DI ì…ë ¥ ìƒíƒœ   |
| **í†µí•©ì„¼ì„œ**   | 134-140      | 133-139      | 0x85-0x8B   | ì„¼ì„œ ë°ì´í„°    |
| **ì „ì—´êµí™˜ê¸°** | 107-109      | 106-108      | 0x6A-0x6C   | HVAC ìƒíƒœ      |
| **DDC ì‹œê°„**   | 0-4          | 1-5          | 0x01-0x05   | ì‹œìŠ¤í…œ ì‹œê°„    |

**âš ï¸ ì¤‘ìš”**: ì´ ë¬¸ì„œëŠ” **0-based addressing**ì„ ì‚¬ìš©í•©ë‹ˆë‹¤. ì‹¤ì œ Modbus RTU í”„ë ˆì„ì—ì„œ ì‚¬ìš©ë˜ëŠ” ì£¼ì†Œì…ë‹ˆë‹¤.

## ğŸ“‹ ë¹ ë¥¸ ì°¸ì¡°: ì£¼ìš” ì™„ì„±ëœ íŒ¨í‚· í‘œ (CRC ê³„ì‚° ì™„ë£Œ)

í…ŒìŠ¤íŠ¸ íˆ´ì—ì„œ ë³µì‚¬-ë¶™ì—¬ë„£ê¸°í•˜ì—¬ ë°”ë¡œ ì‚¬ìš©í•  ìˆ˜ ìˆëŠ” ì£¼ìš” ì™„ì„±ëœ íŒ¨í‚· ëª©ë¡ì…ë‹ˆë‹¤.

> **ì°¸ê³ **: SNGIL DDCëŠ” íŒ¨í‚·ì´ ë§ì•„ ì£¼ìš” íŒ¨í‚·ë§Œ ì •ë¦¬í–ˆìŠµë‹ˆë‹¤. ìƒì„¸ íŒ¨í‚·ì€ ê° ì„¹ì…˜ì„ ì°¸ê³ í•˜ì„¸ìš”.

### DO ì œì–´ íŒ¨í‚·

| DO ë²ˆí˜¸ | ì¥ì¹˜ëª… | ê¸°ëŠ¥ | ì™„ì„±ëœ íŒ¨í‚· (16ì§„ìˆ˜) | ì„¤ëª… |
|---------|--------|------|---------------------|------|
| DO1 | ì‹¤ë‚´ì „ë“±#1 | ëª¨ë“œ: ìˆ˜ë™(0) | `01 05 01 5F 00 00 CD CA` | ìˆ˜ë™ ëª¨ë“œ ì„¤ì • |
| DO1 | ì‹¤ë‚´ì „ë“±#1 | ëª¨ë“œ: ìŠ¤ì¼€ì¤„(1) | `01 05 01 5F FF 00 9C 3A` | ìŠ¤ì¼€ì¤„ ëª¨ë“œ ì„¤ì • |
| DO1 | ì‹¤ë‚´ì „ë“±#1 | ìˆ˜ë™ ì œì–´: ON | `01 05 01 6F FF 00 8C 0A` | ìˆ˜ë™ìœ¼ë¡œ ì¼œê¸° |
| DO1 | ì‹¤ë‚´ì „ë“±#1 | ìˆ˜ë™ ì œì–´: OFF | `01 05 01 6F 00 00 3D CA` | ìˆ˜ë™ìœ¼ë¡œ ë„ê¸° |
| DO1 | ì‹¤ë‚´ì „ë“±#1 | ìƒíƒœ ì½ê¸° | `01 01 03 34 00 01 94 40` | ì¶œë ¥ ìƒíƒœ í™•ì¸ |

### HVAC ì œì–´ íŒ¨í‚·

| ê¸°ëŠ¥ | ì™„ì„±ëœ íŒ¨í‚· (16ì§„ìˆ˜) | ì„¤ëª… |
|------|---------------------|------|
| HVAC ëª¨ë“œ ì½ê¸° | `01 03 00 74 00 01 C4 10` | ìš´ì „ ëª¨ë“œ í™•ì¸ |
| HVAC í˜„ì¬ ì˜¨ë„ ì½ê¸° | `01 03 00 78 00 01 04 13` | í˜„ì¬ ì˜¨ë„ í™•ì¸ |
| HVAC ì„¤ì • ì˜¨ë„ ì½ê¸° | `01 03 00 7A 00 01 65 D3` | ì„¤ì • ì˜¨ë„ í™•ì¸ |

### í†µí•©ì„¼ì„œ íŒ¨í‚·

| ê¸°ëŠ¥ | ì™„ì„±ëœ íŒ¨í‚· (16ì§„ìˆ˜) | ì„¤ëª… |
|------|---------------------|------|
| PM2.5 ì½ê¸° | `01 03 00 87 00 01 34 23` | PM2.5 ê°’ í™•ì¸ |
| CO2 ì½ê¸° | `01 03 00 89 00 01 55 E0` | CO2 ê°’ í™•ì¸ |
| ì˜¨ë„ ì½ê¸° | `01 03 00 8A 00 01 04 13` | ì˜¨ë„ ê°’ í™•ì¸ |
| ìŠµë„ ì½ê¸° | `01 03 00 8B 00 01 55 E3` | ìŠµë„ ê°’ í™•ì¸ |

### DDC ì‹œê°„ íŒ¨í‚·

| ê¸°ëŠ¥ | ì™„ì„±ëœ íŒ¨í‚· (16ì§„ìˆ˜) | ì„¤ëª… |
|------|---------------------|------|
| ë…„ ì½ê¸° | `01 03 00 01 00 01 D5 CA` | í˜„ì¬ ë…„ë„ í™•ì¸ |
| ì›” ì½ê¸° | `01 03 00 02 00 01 25 CA` | í˜„ì¬ ì›” í™•ì¸ |
| ì‹œ ì½ê¸° | `01 03 00 04 00 01 C5 CB` | í˜„ì¬ ì‹œê° í™•ì¸ |
| ë¶„ ì½ê¸° | `01 03 00 05 00 01 84 4A` | í˜„ì¬ ë¶„ í™•ì¸ |

> **ì‚¬ìš© ë°©ë²•**: ìœ„ íŒ¨í‚·ì„ Serial Toolì— ë³µì‚¬-ë¶™ì—¬ë„£ê¸°í•˜ì—¬ ë°”ë¡œ ì „ì†¡í•  ìˆ˜ ìˆìŠµë‹ˆë‹¤. ê³µë°± ì—†ì´ ì—°ì†ìœ¼ë¡œ ì…ë ¥í•˜ê±°ë‚˜, ê³µë°±ì„ ì œê±°í•œ í›„ ì‚¬ìš©í•˜ì„¸ìš”.

## 1. DO(Digital Output) ì œì–´ íŒ¨í‚·

### 1.1 DO ëª¨ë“œ ì„¤ì • (ìˆ˜ë™/ìŠ¤ì¼€ì¤„)

**DO1~DO16 ì „ì²´ ë§¤í•‘:**

| DO ë²ˆí˜¸ | ì¥ì¹˜ëª…     | ëª¨ë“œì„¤ì • ì£¼ì†Œ | ìˆ˜ë™ì œì–´ ì£¼ì†Œ | ì¶œë ¥ìƒíƒœ ì£¼ì†Œ | ì„¤ëª…             |
| ------- | ---------- | ------------- | ------------- | ------------- | ---------------- |
| DO1     | ì‹¤ë‚´ì „ë“±#1 | 0x15F         | 0x16F         | 0x334         | ì‹¤ë‚´ ì „ë“± #1     |
| DO2     | ì‹¤ë‚´ì „ë“±#2 | 0x160         | 0x170         | 0x335         | ì‹¤ë‚´ ì „ë“± #2     |
| DO3     | ì‹¤ì™¸ì „ë“±   | 0x161         | 0x171         | 0x336         | ì‹¤ì™¸ ì „ë“±        |
| DO4     | RESERVED   | 0x162         | 0x172         | 0x337         | ì˜ˆì•½ í¬íŠ¸        |
| DO5     | ìë™ë¬¸#1   | 0x163         | 0x173         | 0x338         | ìë™ë¬¸ #1        |
| DO6     | ìë™ë¬¸#2   | 0x164         | 0x174         | 0x339         | ìë™ë¬¸ #2        |
| DO7     | ì—ì–´ì»¤íŠ¼#1 | 0x165         | 0x175         | 0x33A         | ì—ì–´ì»¤íŠ¼ #1      |
| DO8     | ì—ì–´ì»¤íŠ¼#2 | 0x166         | 0x176         | 0x33B         | ì—ì–´ì»¤íŠ¼ #2      |
| DO9     | ì˜¨ì—´ë²¤ì¹˜#1 | 0x167         | 0x177         | 0x33C         | ì˜¨ì—´ë²¤ì¹˜ #1      |
| DO10    | ì˜¨ì—´ë²¤ì¹˜#2 | 0x168         | 0x178         | 0x33D         | ì˜¨ì—´ë²¤ì¹˜ #2      |
| DO11    | RESERVED   | 0x169         | 0x179         | 0x33E         | ì˜ˆì•½ í¬íŠ¸        |
| DO12    | RESERVED   | 0x16A         | 0x17A         | 0x33F         | ì˜ˆì•½ í¬íŠ¸        |
| DO13    | ìë™ë¬¸SW#1 | 0x16B         | 0x183         | 0x340         | ìë™ë¬¸ ìŠ¤ìœ„ì¹˜ #1 |
| DO14    | ìë™ë¬¸SW#2 | 0x180         | 0x184         | 0x341         | ìë™ë¬¸ ìŠ¤ìœ„ì¹˜ #2 |
| DO15    | ìë™ë¬¸SW#3 | 0x181         | 0x185         | 0x342         | ìë™ë¬¸ ìŠ¤ìœ„ì¹˜ #3 |
| DO16    | RESERVED   | 0x16E         | 0x17E         | 0x343         | ì˜ˆì•½ í¬íŠ¸        |

**ìš”ì²­ íŒ¨í‚· (Function Code 05 - Write Single Coil):**

| DO ë²ˆí˜¸ | ì¥ì¹˜ëª…     | ëª¨ë“œ      | ì£¼ì†Œ  | ê°’  | ìš”ì²­ íŒ¨í‚· (Hex)   | CRC-16       |
| ------- | ---------- | --------- | ----- | --- | ----------------- | ------------ |
| DO1     | ì‹¤ë‚´ì „ë“±#1 | ìˆ˜ë™(0)   | 0x15F | OFF | 01 05 01 5F 00 00 | CRC16/MODBUS |
| DO1     | ì‹¤ë‚´ì „ë“±#1 | ìŠ¤ì¼€ì¤„(1) | 0x15F | ON  | 01 05 01 5F FF 00 | CRC16/MODBUS |
| DO2     | ì‹¤ë‚´ì „ë“±#2 | ìˆ˜ë™(0)   | 0x160 | OFF | 01 05 01 60 00 00 | CRC16/MODBUS |
| DO2     | ì‹¤ë‚´ì „ë“±#2 | ìŠ¤ì¼€ì¤„(1) | 0x160 | ON  | 01 05 01 60 FF 00 | CRC16/MODBUS |
| DO3     | ì‹¤ì™¸ì „ë“±   | ìˆ˜ë™(0)   | 0x161 | OFF | 01 05 01 61 00 00 | CRC16/MODBUS |
| DO3     | ì‹¤ì™¸ì „ë“±   | ìŠ¤ì¼€ì¤„(1) | 0x161 | ON  | 01 05 01 61 FF 00 | CRC16/MODBUS |
| DO5     | ìë™ë¬¸#1   | ìˆ˜ë™(0)   | 0x163 | OFF | 01 05 01 63 00 00 | CRC16/MODBUS |
| DO5     | ìë™ë¬¸#1   | ìŠ¤ì¼€ì¤„(1) | 0x163 | ON  | 01 05 01 63 FF 00 | CRC16/MODBUS |
| DO7     | ì—ì–´ì»¤íŠ¼#1 | ìˆ˜ë™(0)   | 0x165 | OFF | 01 05 01 65 00 00 | CRC16/MODBUS |
| DO7     | ì—ì–´ì»¤íŠ¼#1 | ìŠ¤ì¼€ì¤„(1) | 0x165 | ON  | 01 05 01 65 FF 00 | CRC16/MODBUS |

**ì‘ë‹µ íŒ¨í‚· (ì„±ê³µ ì‹œ):**

```
01 05 01 5F FF 00 4A 4C
```

### 1.2 DO ìˆ˜ë™ ì œì–´ (ì •ì§€/ìš´ì „)

**ìš”ì²­ íŒ¨í‚· (Function Code 05 - Write Single Coil):**

| DO ë²ˆí˜¸ | ì¥ì¹˜ëª…     | ë™ì‘    | ì£¼ì†Œ  | ê°’  | ìš”ì²­ íŒ¨í‚· (Hex)   | CRC-16       |
| ------- | ---------- | ------- | ----- | --- | ----------------- | ------------ |
| DO1     | ì‹¤ë‚´ì „ë“±#1 | ì •ì§€(0) | 0x16F | OFF | 01 05 01 6F 00 00 | CRC16/MODBUS |
| DO1     | ì‹¤ë‚´ì „ë“±#1 | ìš´ì „(1) | 0x16F | ON  | 01 05 01 6F FF 00 | CRC16/MODBUS |
| DO2     | ì‹¤ë‚´ì „ë“±#2 | ì •ì§€(0) | 0x170 | OFF | 01 05 01 70 00 00 | CRC16/MODBUS |
| DO2     | ì‹¤ë‚´ì „ë“±#2 | ìš´ì „(1) | 0x170 | ON  | 01 05 01 70 FF 00 | CRC16/MODBUS |
| DO3     | ì‹¤ì™¸ì „ë“±   | ì •ì§€(0) | 0x171 | OFF | 01 05 01 71 00 00 | CRC16/MODBUS |
| DO3     | ì‹¤ì™¸ì „ë“±   | ìš´ì „(1) | 0x171 | ON  | 01 05 01 71 FF 00 | CRC16/MODBUS |
| DO5     | ìë™ë¬¸#1   | ì •ì§€(0) | 0x173 | OFF | 01 05 01 73 00 00 | CRC16/MODBUS |
| DO5     | ìë™ë¬¸#1   | ìš´ì „(1) | 0x173 | ON  | 01 05 01 73 FF 00 | CRC16/MODBUS |
| DO7     | ì—ì–´ì»¤íŠ¼#1 | ì •ì§€(0) | 0x175 | OFF | 01 05 01 75 00 00 | CRC16/MODBUS |
| DO7     | ì—ì–´ì»¤íŠ¼#1 | ìš´ì „(1) | 0x175 | ON  | 01 05 01 75 FF 00 | CRC16/MODBUS |

**ì‘ë‹µ íŒ¨í‚· (ì„±ê³µ ì‹œ):**

```
01 05 01 6F FF 00 4A 4C
```

### 1.3 DO ìƒíƒœ ì½ê¸°

**ìš”ì²­ íŒ¨í‚· (Function Code 01 - Read Coils):**

| DO ë²ˆí˜¸ | ì¥ì¹˜ëª…     | ì£¼ì†Œ  | ìš”ì²­ íŒ¨í‚· (Hex)   | CRC-16       |
| ------- | ---------- | ----- | ----------------- | ------------ |
| DO1     | ì‹¤ë‚´ì „ë“±#1 | 0x334 | 01 01 03 34 00 01 | CRC16/MODBUS |
| DO2     | ì‹¤ë‚´ì „ë“±#2 | 0x335 | 01 01 03 35 00 01 | CRC16/MODBUS |
| DO3     | ì‹¤ì™¸ì „ë“±   | 0x336 | 01 01 03 36 00 01 | CRC16/MODBUS |
| DO4     | RESERVED   | 0x337 | 01 01 03 37 00 01 | CRC16/MODBUS |
| DO5     | ìë™ë¬¸#1   | 0x338 | 01 01 03 38 00 01 | CRC16/MODBUS |
| DO6     | ìë™ë¬¸#2   | 0x339 | 01 01 03 39 00 01 | CRC16/MODBUS |
| DO7     | ì—ì–´ì»¤íŠ¼#1 | 0x33A | 01 01 03 3A 00 01 | CRC16/MODBUS |
| DO8     | ì—ì–´ì»¤íŠ¼#2 | 0x33B | 01 01 03 3B 00 01 | CRC16/MODBUS |
| DO9     | ì˜¨ì—´ë²¤ì¹˜#1 | 0x33C | 01 01 03 3C 00 01 | CRC16/MODBUS |
| DO10    | ì˜¨ì—´ë²¤ì¹˜#2 | 0x33D | 01 01 03 3D 00 01 | CRC16/MODBUS |
| DO13    | ìë™ë¬¸SW#1 | 0x340 | 01 01 03 40 00 01 | CRC16/MODBUS |
| DO14    | ìë™ë¬¸SW#2 | 0x341 | 01 01 03 41 00 01 | CRC16/MODBUS |
| DO15    | ìë™ë¬¸SW#3 | 0x342 | 01 01 03 42 00 01 | CRC16/MODBUS |

**ì‘ë‹µ íŒ¨í‚· (DO1ì´ ONì¼ ë•Œ):**

```
01 01 01 01 94 40
```

**ì‘ë‹µ íŒ¨í‚· (DO1ì´ OFFì¼ ë•Œ):**

```
01 01 01 00 8B 9A
```

### 1.4 DO ìƒíƒœ ì¼ê´„ ì½ê¸°

**ìš”ì²­ íŒ¨í‚· (Function Code 01 - Read Coils):**

```
01 01 03 34 00 10 54 4C
```

- DO1~DO16 ìƒíƒœë¥¼ í•œ ë²ˆì— ì½ê¸° (16ê°œ Coil)

**ì‘ë‹µ íŒ¨í‚· (ì˜ˆì‹œ - DO1,2ëŠ” ON, ë‚˜ë¨¸ì§€ëŠ” OFF):**

```
01 01 02 03 00 94 40
```

**ì‘ë‹µ íŒ¨í‚· í•´ì„:**

- `01`: Slave ID
- `01`: Function Code (Read Coils)
- `02`: ë°”ì´íŠ¸ ìˆ˜ (16ê°œ Coil = 2ë°”ì´íŠ¸)
- `03 00`: DO1=ON, DO2=ON, DO3~DO16=OFF
- `94 40`: CRC-16

## 2. ê³„ì ˆ ì„¤ì • íŒ¨í‚·

### 2.1 ê³„ì ˆ ì„ íƒ ì„¤ì •

**ê³„ì ˆ ì„¤ì • (ì£¼ì†Œ 326):**

| ì„¤ì •ê°’ | ê³„ì ˆ   | ì„¤ëª…           | ìš”ì²­ íŒ¨í‚· (Hex)   | CRC-16       |
| ------ | ------ | -------------- | ----------------- | ------------ |
| 0      | ë™ì ˆê¸° | ë‚œë°© ëª¨ë“œ ì‚¬ìš© | 01 05 01 46 00 00 | CRC16/MODBUS |
| 1      | í•˜ì ˆê¸° | ëƒ‰ë°© ëª¨ë“œ ì‚¬ìš© | 01 05 01 46 FF 00 | CRC16/MODBUS |

**ì‘ë‹µ íŒ¨í‚· (ì„±ê³µ ì‹œ):**

```
01 05 01 46 FF 00 4A 4C
```

### 2.2 ì›”ë³„ í•˜ì ˆê¸° ì„ íƒ ì„¤ì •

**ì›”ë³„ í•˜ì ˆê¸° ì‚¬ìš© ì„¤ì • (ì£¼ì†Œ 327-338):**

| ì›”   | ì£¼ì†Œ | ì„¤ì •ê°’ | ì„¤ëª…                 | ìš”ì²­ íŒ¨í‚· (Hex)   | CRC-16       |
| ---- | ---- | ------ | -------------------- | ----------------- | ------------ |
| 1ì›”  | 327  | 0      | ë¯¸ì‚¬ìš© (ë™ì ˆê¸° ì‚¬ìš©) | 01 05 01 47 00 00 | CRC16/MODBUS |
| 1ì›”  | 327  | 1      | ì‚¬ìš© (í•˜ì ˆê¸° ì‚¬ìš©)   | 01 05 01 47 FF 00 | CRC16/MODBUS |
| 2ì›”  | 328  | 0      | ë¯¸ì‚¬ìš© (ë™ì ˆê¸° ì‚¬ìš©) | 01 05 01 48 00 00 | CRC16/MODBUS |
| 2ì›”  | 328  | 1      | ì‚¬ìš© (í•˜ì ˆê¸° ì‚¬ìš©)   | 01 05 01 48 FF 00 | CRC16/MODBUS |
| 3ì›”  | 329  | 0      | ë¯¸ì‚¬ìš© (ë™ì ˆê¸° ì‚¬ìš©) | 01 05 01 49 00 00 | CRC16/MODBUS |
| 3ì›”  | 329  | 1      | ì‚¬ìš© (í•˜ì ˆê¸° ì‚¬ìš©)   | 01 05 01 49 FF 00 | CRC16/MODBUS |
| 4ì›”  | 330  | 0      | ë¯¸ì‚¬ìš© (ë™ì ˆê¸° ì‚¬ìš©) | 01 05 01 4A 00 00 | CRC16/MODBUS |
| 4ì›”  | 330  | 1      | ì‚¬ìš© (í•˜ì ˆê¸° ì‚¬ìš©)   | 01 05 01 4A FF 00 | CRC16/MODBUS |
| 5ì›”  | 331  | 0      | ë¯¸ì‚¬ìš© (ë™ì ˆê¸° ì‚¬ìš©) | 01 05 01 4B 00 00 | CRC16/MODBUS |
| 5ì›”  | 331  | 1      | ì‚¬ìš© (í•˜ì ˆê¸° ì‚¬ìš©)   | 01 05 01 4B FF 00 | CRC16/MODBUS |
| 6ì›”  | 332  | 0      | ë¯¸ì‚¬ìš© (ë™ì ˆê¸° ì‚¬ìš©) | 01 05 01 4C 00 00 | CRC16/MODBUS |
| 6ì›”  | 332  | 1      | ì‚¬ìš© (í•˜ì ˆê¸° ì‚¬ìš©)   | 01 05 01 4C FF 00 | CRC16/MODBUS |
| 7ì›”  | 333  | 0      | ë¯¸ì‚¬ìš© (ë™ì ˆê¸° ì‚¬ìš©) | 01 05 01 4D 00 00 | CRC16/MODBUS |
| 7ì›”  | 333  | 1      | ì‚¬ìš© (í•˜ì ˆê¸° ì‚¬ìš©)   | 01 05 01 4D FF 00 | CRC16/MODBUS |
| 8ì›”  | 334  | 0      | ë¯¸ì‚¬ìš© (ë™ì ˆê¸° ì‚¬ìš©) | 01 05 01 4E 00 00 | CRC16/MODBUS |
| 8ì›”  | 334  | 1      | ì‚¬ìš© (í•˜ì ˆê¸° ì‚¬ìš©)   | 01 05 01 4E FF 00 | CRC16/MODBUS |
| 9ì›”  | 335  | 0      | ë¯¸ì‚¬ìš© (ë™ì ˆê¸° ì‚¬ìš©) | 01 05 01 4F 00 00 | CRC16/MODBUS |
| 9ì›”  | 335  | 1      | ì‚¬ìš© (í•˜ì ˆê¸° ì‚¬ìš©)   | 01 05 01 4F FF 00 | CRC16/MODBUS |
| 10ì›” | 336  | 0      | ë¯¸ì‚¬ìš© (ë™ì ˆê¸° ì‚¬ìš©) | 01 05 01 50 00 00 | CRC16/MODBUS |
| 10ì›” | 336  | 1      | ì‚¬ìš© (í•˜ì ˆê¸° ì‚¬ìš©)   | 01 05 01 50 FF 00 | CRC16/MODBUS |
| 11ì›” | 337  | 0      | ë¯¸ì‚¬ìš© (ë™ì ˆê¸° ì‚¬ìš©) | 01 05 01 51 00 00 | CRC16/MODBUS |
| 11ì›” | 337  | 1      | ì‚¬ìš© (í•˜ì ˆê¸° ì‚¬ìš©)   | 01 05 01 51 FF 00 | CRC16/MODBUS |
| 12ì›” | 338  | 0      | ë¯¸ì‚¬ìš© (ë™ì ˆê¸° ì‚¬ìš©) | 01 05 01 52 00 00 | CRC16/MODBUS |
| 12ì›” | 338  | 1      | ì‚¬ìš© (í•˜ì ˆê¸° ì‚¬ìš©)   | 01 05 01 52 FF 00 | CRC16/MODBUS |

**ì‘ë‹µ íŒ¨í‚· (ì„±ê³µ ì‹œ):**

```
01 05 01 47 FF 00 4A 9D
```

### 2.3 ì›”ë³„ ìë™ ê³„ì ˆ íŒë‹¨ ì½ê¸°

**ì›”ë³„ ì‹¤ì œ ê³„ì ˆ ìƒíƒœ ì½ê¸° (ì£¼ì†Œ 339-350):**

| ì›”   | ì£¼ì†Œ | ê°’  | ì„¤ëª…                        | ìš”ì²­ íŒ¨í‚· (Hex)   | CRC-16       |
| ---- | ---- | --- | --------------------------- | ----------------- | ------------ |
| 1ì›”  | 339  | 0   | ë™ì ˆê¸° (ì„ íƒëœ ë‹¬ê³¼ ë¶ˆì¼ì¹˜) | 01 01 01 53 00 01 | CRC16/MODBUS |
| 1ì›”  | 339  | 1   | í•˜ì ˆê¸° (ì„ íƒëœ ë‹¬ê³¼ ì¼ì¹˜)   | 01 01 01 53 00 01 | CRC16/MODBUS |
| 2ì›”  | 340  | 0   | ë™ì ˆê¸° (ì„ íƒëœ ë‹¬ê³¼ ë¶ˆì¼ì¹˜) | 01 01 01 54 00 01 | CRC16/MODBUS |
| 2ì›”  | 340  | 1   | í•˜ì ˆê¸° (ì„ íƒëœ ë‹¬ê³¼ ì¼ì¹˜)   | 01 01 01 54 00 01 | CRC16/MODBUS |
| 3ì›”  | 341  | 0   | ë™ì ˆê¸° (ì„ íƒëœ ë‹¬ê³¼ ë¶ˆì¼ì¹˜) | 01 01 01 55 00 01 | CRC16/MODBUS |
| 3ì›”  | 341  | 1   | í•˜ì ˆê¸° (ì„ íƒëœ ë‹¬ê³¼ ì¼ì¹˜)   | 01 01 01 55 00 01 | CRC16/MODBUS |
| 4ì›”  | 342  | 0   | ë™ì ˆê¸° (ì„ íƒëœ ë‹¬ê³¼ ë¶ˆì¼ì¹˜) | 01 01 01 56 00 01 | CRC16/MODBUS |
| 4ì›”  | 342  | 1   | í•˜ì ˆê¸° (ì„ íƒëœ ë‹¬ê³¼ ì¼ì¹˜)   | 01 01 01 56 00 01 | CRC16/MODBUS |
| 5ì›”  | 343  | 0   | ë™ì ˆê¸° (ì„ íƒëœ ë‹¬ê³¼ ë¶ˆì¼ì¹˜) | 01 01 01 57 00 01 | CRC16/MODBUS |
| 5ì›”  | 343  | 1   | í•˜ì ˆê¸° (ì„ íƒëœ ë‹¬ê³¼ ì¼ì¹˜)   | 01 01 01 57 00 01 | CRC16/MODBUS |
| 6ì›”  | 344  | 0   | ë™ì ˆê¸° (ì„ íƒëœ ë‹¬ê³¼ ë¶ˆì¼ì¹˜) | 01 01 01 58 00 01 | CRC16/MODBUS |
| 6ì›”  | 344  | 1   | í•˜ì ˆê¸° (ì„ íƒëœ ë‹¬ê³¼ ì¼ì¹˜)   | 01 01 01 58 00 01 | CRC16/MODBUS |
| 7ì›”  | 345  | 0   | ë™ì ˆê¸° (ì„ íƒëœ ë‹¬ê³¼ ë¶ˆì¼ì¹˜) | 01 01 01 59 00 01 | CRC16/MODBUS |
| 7ì›”  | 345  | 1   | í•˜ì ˆê¸° (ì„ íƒëœ ë‹¬ê³¼ ì¼ì¹˜)   | 01 01 01 59 00 01 | CRC16/MODBUS |
| 8ì›”  | 346  | 0   | ë™ì ˆê¸° (ì„ íƒëœ ë‹¬ê³¼ ë¶ˆì¼ì¹˜) | 01 01 01 5A 00 01 | CRC16/MODBUS |
| 8ì›”  | 346  | 1   | í•˜ì ˆê¸° (ì„ íƒëœ ë‹¬ê³¼ ì¼ì¹˜)   | 01 01 01 5A 00 01 | CRC16/MODBUS |
| 9ì›”  | 347  | 0   | ë™ì ˆê¸° (ì„ íƒëœ ë‹¬ê³¼ ë¶ˆì¼ì¹˜) | 01 01 01 5B 00 01 | CRC16/MODBUS |
| 9ì›”  | 347  | 1   | í•˜ì ˆê¸° (ì„ íƒëœ ë‹¬ê³¼ ì¼ì¹˜)   | 01 01 01 5B 00 01 | CRC16/MODBUS |
| 10ì›” | 348  | 0   | ë™ì ˆê¸° (ì„ íƒëœ ë‹¬ê³¼ ë¶ˆì¼ì¹˜) | 01 01 01 5C 00 01 | CRC16/MODBUS |
| 10ì›” | 348  | 1   | í•˜ì ˆê¸° (ì„ íƒëœ ë‹¬ê³¼ ì¼ì¹˜)   | 01 01 01 5C 00 01 | CRC16/MODBUS |
| 11ì›” | 349  | 0   | ë™ì ˆê¸° (ì„ íƒëœ ë‹¬ê³¼ ë¶ˆì¼ì¹˜) | 01 01 01 5D 00 01 | CRC16/MODBUS |
| 11ì›” | 349  | 1   | í•˜ì ˆê¸° (ì„ íƒëœ ë‹¬ê³¼ ì¼ì¹˜)   | 01 01 01 5D 00 01 | CRC16/MODBUS |
| 12ì›” | 350  | 0   | ë™ì ˆê¸° (ì„ íƒëœ ë‹¬ê³¼ ë¶ˆì¼ì¹˜) | 01 01 01 5E 00 01 | CRC16/MODBUS |
| 12ì›” | 350  | 1   | í•˜ì ˆê¸° (ì„ íƒëœ ë‹¬ê³¼ ì¼ì¹˜)   | 01 01 01 5E 00 01 | CRC16/MODBUS |

**ì‘ë‹µ íŒ¨í‚· (1ì›”ì´ í•˜ì ˆê¸°ë¡œ ì„¤ì •ë˜ì–´ ìˆì„ ë•Œ):**

```
01 01 01 01 94 40
```

**ì‘ë‹µ íŒ¨í‚· (1ì›”ì´ ë™ì ˆê¸°ë¡œ ì„¤ì •ë˜ì–´ ìˆì„ ë•Œ):**

```
01 01 01 00 8B 9A
```

**ê³„ì ˆ ì„¤ì • ë™ì‘ ì›ë¦¬:**

1. **ê³„ì ˆ ì„ íƒ**: ì£¼ì†Œ 326ì—ì„œ ë™ì ˆê¸°(0) ë˜ëŠ” í•˜ì ˆê¸°(1) ì„ íƒ

   - **Function Code 05**: Write Single Coil ì‚¬ìš©
   - **ê°’**: OFF(0x0000) = ë™ì ˆê¸°, ON(0xFF00) = í•˜ì ˆê¸°

2. **ì›”ë³„ ì„¤ì •**: ì£¼ì†Œ 327-338ì—ì„œ ê° ì›”ë³„ë¡œ í•˜ì ˆê¸° ì‚¬ìš© ì—¬ë¶€ ì„¤ì •

   - **Function Code 05**: Write Single Coil ì‚¬ìš©
   - **ê°’**: OFF(0x0000) = ë™ì ˆê¸°, ON(0xFF00) = í•˜ì ˆê¸°

3. **ìë™ íŒë‹¨**: ì£¼ì†Œ 339-350ì—ì„œ ì‹¤ì œ ë‹¬ê³¼ ì„ íƒëœ ë‹¬ì„ ë¹„êµí•˜ì—¬ ìë™ìœ¼ë¡œ ë™ì ˆê¸°/í•˜ì ˆê¸° ê²°ì •
   - **Function Code 01**: Read Coils ì‚¬ìš©
   - **ê°’**: OFF(0x0000) = ë™ì ˆê¸°, ON(0xFF00) = í•˜ì ˆê¸°
   - ì„ íƒëœ ë‹¬ê³¼ ì‹¤ì œ ë‹¬ì´ ì¼ì¹˜í•˜ë©´ í•˜ì ˆê¸°(ON)
   - ì„ íƒëœ ë‹¬ê³¼ ì‹¤ì œ ë‹¬ì´ ë¶ˆì¼ì¹˜í•˜ë©´ ë™ì ˆê¸°(OFF)

## 4. DI(Digital Input) ê¸°ëŠ¥ ì„¤ì • íŒ¨í‚·

### 4.1 DI ê¸°ëŠ¥ í™œì„±í™”/ë¹„í™œì„±í™”

**DI_01~DI_16 ê¸°ëŠ¥ ì„¤ì • (ì£¼ì†Œ 403-418):**

| DI ë²ˆí˜¸ | ì£¼ì†Œ | ì„¤ì •ê°’ | ì„¤ëª…   | ìš”ì²­ íŒ¨í‚· (Hex)   | CRC-16       |
| ------- | ---- | ------ | ------ | ----------------- | ------------ |
| DI_01   | 403  | 0      | ë¯¸ì‚¬ìš© | 01 05 01 93 00 00 | CRC16/MODBUS |
| DI_01   | 403  | 1      | ì‚¬ìš©   | 01 05 01 93 FF 00 | CRC16/MODBUS |
| DI_02   | 404  | 0      | ë¯¸ì‚¬ìš© | 01 05 01 94 00 00 | CRC16/MODBUS |
| DI_02   | 404  | 1      | ì‚¬ìš©   | 01 05 01 94 FF 00 | CRC16/MODBUS |
| DI_03   | 405  | 0      | ë¯¸ì‚¬ìš© | 01 05 01 95 00 00 | CRC16/MODBUS |
| DI_03   | 405  | 1      | ì‚¬ìš©   | 01 05 01 95 FF 00 | CRC16/MODBUS |
| DI_04   | 406  | 0      | ë¯¸ì‚¬ìš© | 01 05 01 96 00 00 | CRC16/MODBUS |
| DI_04   | 406  | 1      | ì‚¬ìš©   | 01 05 01 96 FF 00 | CRC16/MODBUS |
| DI_05   | 407  | 0      | ë¯¸ì‚¬ìš© | 01 05 01 97 00 00 | CRC16/MODBUS |
| DI_05   | 407  | 1      | ì‚¬ìš©   | 01 05 01 97 FF 00 | CRC16/MODBUS |
| DI_06   | 408  | 0      | ë¯¸ì‚¬ìš© | 01 05 01 98 00 00 | CRC16/MODBUS |
| DI_06   | 408  | 1      | ì‚¬ìš©   | 01 05 01 98 FF 00 | CRC16/MODBUS |
| DI_07   | 409  | 0      | ë¯¸ì‚¬ìš© | 01 05 01 99 00 00 | CRC16/MODBUS |
| DI_07   | 409  | 1      | ì‚¬ìš©   | 01 05 01 99 FF 00 | CRC16/MODBUS |
| DI_08   | 410  | 0      | ë¯¸ì‚¬ìš© | 01 05 01 9A 00 00 | CRC16/MODBUS |
| DI_08   | 410  | 1      | ì‚¬ìš©   | 01 05 01 9A FF 00 | CRC16/MODBUS |
| DI_09   | 411  | 0      | ë¯¸ì‚¬ìš© | 01 05 01 9B 00 00 | CRC16/MODBUS |
| DI_09   | 411  | 1      | ì‚¬ìš©   | 01 05 01 9B FF 00 | CRC16/MODBUS |
| DI_10   | 412  | 0      | ë¯¸ì‚¬ìš© | 01 05 01 9C 00 00 | CRC16/MODBUS |
| DI_10   | 412  | 1      | ì‚¬ìš©   | 01 05 01 9C FF 00 | CRC16/MODBUS |
| DI_11   | 413  | 0      | ë¯¸ì‚¬ìš© | 01 05 01 9D 00 00 | CRC16/MODBUS |
| DI_11   | 413  | 1      | ì‚¬ìš©   | 01 05 01 9D FF 00 | CRC16/MODBUS |
| DI_12   | 414  | 0      | ë¯¸ì‚¬ìš© | 01 05 01 9E 00 00 | CRC16/MODBUS |
| DI_12   | 414  | 1      | ì‚¬ìš©   | 01 05 01 9E FF 00 | CRC16/MODBUS |
| DI_13   | 415  | 0      | ë¯¸ì‚¬ìš© | 01 05 01 9F 00 00 | CRC16/MODBUS |
| DI_13   | 415  | 1      | ì‚¬ìš©   | 01 05 01 9F FF 00 | CRC16/MODBUS |
| DI_14   | 416  | 0      | ë¯¸ì‚¬ìš© | 01 05 01 A0 00 00 | CRC16/MODBUS |
| DI_14   | 416  | 1      | ì‚¬ìš©   | 01 05 01 A0 FF 00 | CRC16/MODBUS |
| DI_15   | 417  | 0      | ë¯¸ì‚¬ìš© | 01 05 01 A1 00 00 | CRC16/MODBUS |
| DI_15   | 417  | 1      | ì‚¬ìš©   | 01 05 01 A1 FF 00 | CRC16/MODBUS |
| DI_16   | 418  | 0      | ë¯¸ì‚¬ìš© | 01 05 01 A2 00 00 | CRC16/MODBUS |
| DI_16   | 418  | 1      | ì‚¬ìš©   | 01 05 01 A2 FF 00 | CRC16/MODBUS |

**ì‘ë‹µ íŒ¨í‚· (ì„±ê³µ ì‹œ):**

```
01 05 01 93 FF 00 4A 4C
```

### 4.2 DI ë”œë ˆì´íƒ€ì„ ì„¤ì •

**DI_13, DI_14, DI_15 ë”œë ˆì´íƒ€ì„ ì„¤ì • (ì£¼ì†Œ 32-34):**

| DI ë²ˆí˜¸ | ì£¼ì†Œ | ë”œë ˆì´íƒ€ì„ | ë²”ìœ„ | ìš”ì²­ íŒ¨í‚· (Hex)   | CRC-16       |
| ------- | ---- | ---------- | ---- | ----------------- | ------------ |
| DI_13   | 32   | 0ì´ˆ        | 0-60 | 01 06 00 20 00 00 | CRC16/MODBUS |
| DI_13   | 32   | 30ì´ˆ       | 0-60 | 01 06 00 20 00 1E | CRC16/MODBUS |
| DI_13   | 32   | 60ì´ˆ       | 0-60 | 01 06 00 20 00 3C | CRC16/MODBUS |
| DI_14   | 33   | 0ì´ˆ        | 0-60 | 01 06 00 21 00 00 | CRC16/MODBUS |
| DI_14   | 33   | 30ì´ˆ       | 0-60 | 01 06 00 21 00 1E | CRC16/MODBUS |
| DI_14   | 33   | 60ì´ˆ       | 0-60 | 01 06 00 21 00 3C | CRC16/MODBUS |
| DI_15   | 34   | 0ì´ˆ        | 0-60 | 01 06 00 22 00 00 | CRC16/MODBUS |
| DI_15   | 34   | 30ì´ˆ       | 0-60 | 01 06 00 22 00 1E | CRC16/MODBUS |
| DI_15   | 34   | 60ì´ˆ       | 0-60 | 01 06 00 22 00 3C | CRC16/MODBUS |

**ì‘ë‹µ íŒ¨í‚· (ì„±ê³µ ì‹œ):**

```
01 06 00 20 00 1E D9 E8
```

### 4.3 DI ìƒíƒœ ì½ê¸°

**DI_01~DI_16 ìƒíƒœ ì½ê¸° (Function Code 02 - Read Discrete Inputs):**

| DI ë²ˆí˜¸ | ì£¼ì†Œ | ìš”ì²­ íŒ¨í‚· (Hex)   | CRC-16       |
| ------- | ---- | ----------------- | ------------ |
| DI_01   | 99   | 01 02 00 63 00 01 | CRC16/MODBUS |
| DI_02   | 100  | 01 02 00 64 00 01 | CRC16/MODBUS |
| DI_03   | 101  | 01 02 00 65 00 01 | CRC16/MODBUS |
| DI_04   | 102  | 01 02 00 66 00 01 | CRC16/MODBUS |
| DI_05   | 103  | 01 02 00 67 00 01 | CRC16/MODBUS |
| DI_06   | 104  | 01 02 00 68 00 01 | CRC16/MODBUS |
| DI_07   | 105  | 01 02 00 69 00 01 | CRC16/MODBUS |
| DI_08   | 106  | 01 02 00 6A 00 01 | CRC16/MODBUS |
| DI_09   | 107  | 01 02 00 6B 00 01 | CRC16/MODBUS |
| DI_10   | 108  | 01 02 00 6C 00 01 | CRC16/MODBUS |
| DI_11   | 109  | 01 02 00 6D 00 01 | CRC16/MODBUS |
| DI_12   | 110  | 01 02 00 6E 00 01 | CRC16/MODBUS |
| DI_13   | 111  | 01 02 00 6F 00 01 | CRC16/MODBUS |
| DI_14   | 112  | 01 02 00 70 00 01 | CRC16/MODBUS |
| DI_15   | 113  | 01 02 00 71 00 01 | CRC16/MODBUS |
| DI_16   | 114  | 01 02 00 72 00 01 | CRC16/MODBUS |

**ì‘ë‹µ íŒ¨í‚· (DI_01ì´ ONì¼ ë•Œ):**

```
01 02 01 01 94 40
```

**ì‘ë‹µ íŒ¨í‚· (DI_01ì´ OFFì¼ ë•Œ):**

```
01 02 01 00 8B 9A
```

**DI ê¸°ëŠ¥ ì„¤ì • ë™ì‘ ì›ë¦¬:**

1. **ê¸°ëŠ¥ í™œì„±í™”**: ì£¼ì†Œ 403-418ì—ì„œ ê° DI í¬íŠ¸ì˜ ì‚¬ìš© ì—¬ë¶€ ì„¤ì •

   - **Function Code 05**: Write Single Coil ì‚¬ìš©
   - **ê°’**: OFF(0x0000) = ë¯¸ì‚¬ìš©, ON(0xFF00) = ì‚¬ìš©

2. **ë”œë ˆì´íƒ€ì„**: ì£¼ì†Œ 32-34ì—ì„œ DI_13, DI_14, DI_15ì˜ ë”œë ˆì´íƒ€ì„ ì„¤ì • (0-60ì´ˆ)

   - **Function Code 06**: Write Single Register ì‚¬ìš© (Holding Register)
   - **ê°’**: 0x0000 (0ì´ˆ), 0x001E (30ì´ˆ), 0x003C (60ì´ˆ)

3. **ìƒíƒœ ëª¨ë‹ˆí„°ë§**: ì£¼ì†Œ 99-114ì—ì„œ ê° DI í¬íŠ¸ì˜ ì‹¤ì œ ìƒíƒœ ì½ê¸°
   - **Function Code 02**: Read Discrete Inputs ì‚¬ìš© (ì½ê¸° ì „ìš©)
   - **ê°’**: OFF(0x0000) = ì…ë ¥ ì—†ìŒ, ON(0x0001) = ì…ë ¥ ìˆìŒ

## 5. DO(Digital Output) ì œì–´ íŒ¨í‚·

### 1.1 DO ëª¨ë“œ ì„¤ì • (ìˆ˜ë™/ìŠ¤ì¼€ì¤„)

**DO1~DO16 ì „ì²´ ë§¤í•‘:**

| DO ë²ˆí˜¸ | ì¥ì¹˜ëª…     | ëª¨ë“œì„¤ì • ì£¼ì†Œ | ìˆ˜ë™ì œì–´ ì£¼ì†Œ | ì¶œë ¥ìƒíƒœ ì£¼ì†Œ | ì„¤ëª…             |
| ------- | ---------- | ------------- | ------------- | ------------- | ---------------- |
| DO1     | ì‹¤ë‚´ì „ë“±#1 | 0x15F         | 0x16F         | 0x334         | ì‹¤ë‚´ ì „ë“± #1     |
| DO2     | ì‹¤ë‚´ì „ë“±#2 | 0x160         | 0x170         | 0x335         | ì‹¤ë‚´ ì „ë“± #2     |
| DO3     | ì‹¤ì™¸ì „ë“±   | 0x161         | 0x171         | 0x336         | ì‹¤ì™¸ ì „ë“±        |
| DO4     | RESERVED   | 0x162         | 0x172         | 0x337         | ì˜ˆì•½ í¬íŠ¸        |
| DO5     | ìë™ë¬¸#1   | 0x163         | 0x173         | 0x338         | ìë™ë¬¸ #1        |
| DO6     | ìë™ë¬¸#2   | 0x164         | 0x174         | 0x339         | ìë™ë¬¸ #2        |
| DO7     | ì—ì–´ì»¤íŠ¼#1 | 0x165         | 0x175         | 0x33A         | ì—ì–´ì»¤íŠ¼ #1      |
| DO8     | ì—ì–´ì»¤íŠ¼#2 | 0x166         | 0x176         | 0x33B         | ì—ì–´ì»¤íŠ¼ #2      |
| DO9     | ì˜¨ì—´ë²¤ì¹˜#1 | 0x167         | 0x177         | 0x33C         | ì˜¨ì—´ë²¤ì¹˜ #1      |
| DO10    | ì˜¨ì—´ë²¤ì¹˜#2 | 0x168         | 0x178         | 0x33D         | ì˜¨ì—´ë²¤ì¹˜ #2      |
| DO11    | RESERVED   | 0x169         | 0x179         | 0x33E         | ì˜ˆì•½ í¬íŠ¸        |
| DO12    | RESERVED   | 0x16A         | 0x17A         | 0x33F         | ì˜ˆì•½ í¬íŠ¸        |
| DO13    | ìë™ë¬¸SW#1 | 0x16B         | 0x183         | 0x340         | ìë™ë¬¸ ìŠ¤ìœ„ì¹˜ #1 |
| DO14    | ìë™ë¬¸SW#2 | 0x180         | 0x184         | 0x341         | ìë™ë¬¸ ìŠ¤ìœ„ì¹˜ #2 |
| DO15    | ìë™ë¬¸SW#3 | 0x181         | 0x185         | 0x342         | ìë™ë¬¸ ìŠ¤ìœ„ì¹˜ #3 |
| DO16    | RESERVED   | 0x16E         | 0x17E         | 0x343         | ì˜ˆì•½ í¬íŠ¸        |

**ìš”ì²­ íŒ¨í‚· (Function Code 05 - Write Single Coil):**

| DO ë²ˆí˜¸ | ì¥ì¹˜ëª…     | ëª¨ë“œ      | ì£¼ì†Œ  | ê°’  | ìš”ì²­ íŒ¨í‚· (Hex)   | CRC-16       |
| ------- | ---------- | --------- | ----- | --- | ----------------- | ------------ |
| DO1     | ì‹¤ë‚´ì „ë“±#1 | ìˆ˜ë™(0)   | 0x15F | OFF | 01 05 01 5F 00 00 | CRC16/MODBUS |
| DO1     | ì‹¤ë‚´ì „ë“±#1 | ìŠ¤ì¼€ì¤„(1) | 0x15F | ON  | 01 05 01 5F FF 00 | CRC16/MODBUS |
| DO2     | ì‹¤ë‚´ì „ë“±#2 | ìˆ˜ë™(0)   | 0x160 | OFF | 01 05 01 60 00 00 | CRC16/MODBUS |
| DO2     | ì‹¤ë‚´ì „ë“±#2 | ìŠ¤ì¼€ì¤„(1) | 0x160 | ON  | 01 05 01 60 FF 00 | CRC16/MODBUS |
| DO3     | ì‹¤ì™¸ì „ë“±   | ìˆ˜ë™(0)   | 0x161 | OFF | 01 05 01 61 00 00 | CRC16/MODBUS |
| DO3     | ì‹¤ì™¸ì „ë“±   | ìŠ¤ì¼€ì¤„(1) | 0x161 | ON  | 01 05 01 61 FF 00 | CRC16/MODBUS |
| DO5     | ìë™ë¬¸#1   | ìˆ˜ë™(0)   | 0x163 | OFF | 01 05 01 63 00 00 | CRC16/MODBUS |
| DO5     | ìë™ë¬¸#1   | ìŠ¤ì¼€ì¤„(1) | 0x163 | ON  | 01 05 01 63 FF 00 | CRC16/MODBUS |
| DO7     | ì—ì–´ì»¤íŠ¼#1 | ìˆ˜ë™(0)   | 0x165 | OFF | 01 05 01 65 00 00 | CRC16/MODBUS |
| DO7     | ì—ì–´ì»¤íŠ¼#1 | ìŠ¤ì¼€ì¤„(1) | 0x165 | ON  | 01 05 01 65 FF 00 | CRC16/MODBUS |

**ì‘ë‹µ íŒ¨í‚· (ì„±ê³µ ì‹œ):**

```
01 05 01 5F FF 00 4A 4C
```

### 1.2 DO ìˆ˜ë™ ì œì–´ (ì •ì§€/ìš´ì „)

**ìš”ì²­ íŒ¨í‚· (Function Code 05 - Write Single Coil):**

| DO ë²ˆí˜¸ | ì¥ì¹˜ëª…     | ë™ì‘    | ì£¼ì†Œ  | ê°’  | ìš”ì²­ íŒ¨í‚· (Hex)   | CRC-16       |
| ------- | ---------- | ------- | ----- | --- | ----------------- | ------------ |
| DO1     | ì‹¤ë‚´ì „ë“±#1 | ì •ì§€(0) | 0x16F | OFF | 01 05 01 6F 00 00 | CRC16/MODBUS |
| DO1     | ì‹¤ë‚´ì „ë“±#1 | ìš´ì „(1) | 0x16F | ON  | 01 05 01 6F FF 00 | CRC16/MODBUS |
| DO2     | ì‹¤ë‚´ì „ë“±#2 | ì •ì§€(0) | 0x170 | OFF | 01 05 01 70 00 00 | CRC16/MODBUS |
| DO2     | ì‹¤ë‚´ì „ë“±#2 | ìš´ì „(1) | 0x170 | ON  | 01 05 01 70 FF 00 | CRC16/MODBUS |
| DO3     | ì‹¤ì™¸ì „ë“±   | ì •ì§€(0) | 0x171 | OFF | 01 05 01 71 00 00 | CRC16/MODBUS |
| DO3     | ì‹¤ì™¸ì „ë“±   | ìš´ì „(1) | 0x171 | ON  | 01 05 01 71 FF 00 | CRC16/MODBUS |
| DO5     | ìë™ë¬¸#1   | ì •ì§€(0) | 0x173 | OFF | 01 05 01 73 00 00 | CRC16/MODBUS |
| DO5     | ìë™ë¬¸#1   | ìš´ì „(1) | 0x173 | ON  | 01 05 01 73 FF 00 | CRC16/MODBUS |
| DO7     | ì—ì–´ì»¤íŠ¼#1 | ì •ì§€(0) | 0x175 | OFF | 01 05 01 75 00 00 | CRC16/MODBUS |
| DO7     | ì—ì–´ì»¤íŠ¼#1 | ìš´ì „(1) | 0x175 | ON  | 01 05 01 75 FF 00 | CRC16/MODBUS |

**ì‘ë‹µ íŒ¨í‚· (ì„±ê³µ ì‹œ):**

```
01 05 01 6F FF 00 4A 4C
```

### 1.3 DO ìƒíƒœ ì½ê¸°

**ìš”ì²­ íŒ¨í‚· (Function Code 01 - Read Coils):**

| DO ë²ˆí˜¸ | ì¥ì¹˜ëª…     | ì£¼ì†Œ  | ìš”ì²­ íŒ¨í‚· (Hex)   | CRC-16       |
| ------- | ---------- | ----- | ----------------- | ------------ |
| DO1     | ì‹¤ë‚´ì „ë“±#1 | 0x334 | 01 01 03 34 00 01 | CRC16/MODBUS |
| DO2     | ì‹¤ë‚´ì „ë“±#2 | 0x335 | 01 01 03 35 00 01 | CRC16/MODBUS |
| DO3     | ì‹¤ì™¸ì „ë“±   | 0x336 | 01 01 03 36 00 01 | CRC16/MODBUS |
| DO4     | RESERVED   | 0x337 | 01 01 03 37 00 01 | CRC16/MODBUS |
| DO5     | ìë™ë¬¸#1   | 0x338 | 01 01 03 38 00 01 | CRC16/MODBUS |
| DO6     | ìë™ë¬¸#2   | 0x339 | 01 01 03 39 00 01 | CRC16/MODBUS |
| DO7     | ì—ì–´ì»¤íŠ¼#1 | 0x33A | 01 01 03 3A 00 01 | CRC16/MODBUS |
| DO8     | ì—ì–´ì»¤íŠ¼#2 | 0x33B | 01 01 03 3B 00 01 | CRC16/MODBUS |
| DO9     | ì˜¨ì—´ë²¤ì¹˜#1 | 0x33C | 01 01 03 3C 00 01 | CRC16/MODBUS |
| DO10    | ì˜¨ì—´ë²¤ì¹˜#2 | 0x33D | 01 01 03 3D 00 01 | CRC16/MODBUS |
| DO13    | ìë™ë¬¸SW#1 | 0x340 | 01 01 03 40 00 01 | CRC16/MODBUS |
| DO14    | ìë™ë¬¸SW#2 | 0x341 | 01 01 03 41 00 01 | CRC16/MODBUS |
| DO15    | ìë™ë¬¸SW#3 | 0x342 | 01 01 03 42 00 01 | CRC16/MODBUS |

**ì‘ë‹µ íŒ¨í‚· (DO1ì´ ONì¼ ë•Œ):**

```
01 01 01 01 94 40
```

**ì‘ë‹µ íŒ¨í‚· (DO1ì´ OFFì¼ ë•Œ):**

```
01 01 01 00 8B 9A
```

### 1.4 DO ìƒíƒœ ì¼ê´„ ì½ê¸°

**ìš”ì²­ íŒ¨í‚· (Function Code 01 - Read Coils):**

```
01 01 03 34 00 10 54 4C
```

- DO1~DO16 ìƒíƒœë¥¼ í•œ ë²ˆì— ì½ê¸° (16ê°œ Coil)

**ì‘ë‹µ íŒ¨í‚· (ì˜ˆì‹œ - DO1,2ëŠ” ON, ë‚˜ë¨¸ì§€ëŠ” OFF):**

```
01 01 02 03 00 94 40
```

**ì‘ë‹µ íŒ¨í‚· í•´ì„:**

- `01`: Slave ID
- `01`: Function Code (Read Coils)
- `02`: ë°”ì´íŠ¸ ìˆ˜ (16ê°œ Coil = 2ë°”ì´íŠ¸)
- `03 00`: DO1=ON, DO2=ON, DO3~DO16=OFF
- `94 40`: CRC-16

## 6. í†µí•©ì„¼ì„œ ë°ì´í„° ì½ê¸° íŒ¨í‚·

**ìš”ì²­ íŒ¨í‚· (Function Code 03 - Read Holding Registers):**

| í•­ëª©  | ì£¼ì†Œ | ìš”ì²­ íŒ¨í‚· (Hex)   | CRC-16       |
| ----- | ---- | ----------------- | ------------ |
| PM1.0 | 133  | 01 03 00 85 00 01 | CRC16/MODBUS |
| PM2.5 | 134  | 01 03 00 86 00 01 | CRC16/MODBUS |
| PM10  | 135  | 01 03 00 87 00 01 | CRC16/MODBUS |
| CO2   | 136  | 01 03 00 88 00 01 | CRC16/MODBUS |
| VOC   | 137  | 01 03 00 89 00 01 | CRC16/MODBUS |
| ì˜¨ë„  | 138  | 01 03 00 8A 00 01 | CRC16/MODBUS |
| ìŠµë„  | 139  | 01 03 00 8B 00 01 | CRC16/MODBUS |

**ì‘ë‹µ íŒ¨í‚· ì˜ˆì‹œ (PM2.5: 25, CO2: 450, ì˜¨ë„: 23.5ë„, ìŠµë„: 45%):**

```
01 03 0E 00 19 01 C2 00 00 00 EB 00 00 00 2D 00 00 00 2D 94 40
```

**ì‘ë‹µ íŒ¨í‚· í•´ì„:**

- `01`: Slave ID
- `03`: Function Code (Read Holding Registers)
- `0E`: ë°”ì´íŠ¸ ìˆ˜ (14ë°”ì´íŠ¸ = 7ê°œ ë ˆì§€ìŠ¤í„° Ã— 2ë°”ì´íŠ¸)
- `00 19`: PM1.0 = 25
- `01 C2`: PM2.5 = 450
- `00 00`: PM10 = 0
- `00 EB`: CO2 = 235
- `00 00`: VOC = 0
- `00 2D`: ì˜¨ë„ = 45 (23.5ë„ Ã— 2)
- `00 2D`: ìŠµë„ = 45%
- `94 40`: CRC-16

## 7. ì „ì—´êµí™˜ê¸° ìƒíƒœ ì½ê¸° íŒ¨í‚·

**ìš”ì²­ íŒ¨í‚· (Function Code 03 - Read Holding Registers):**

| í•­ëª©     | ì£¼ì†Œ | ìš”ì²­ íŒ¨í‚· (Hex)   | CRC-16       |
| -------- | ---- | ----------------- | ------------ |
| ìš´ì „ìƒíƒœ | 106  | 01 03 00 6A 00 01 | CRC16/MODBUS |
| ì„¤ì •ì˜¨ë„ | 107  | 01 03 00 6B 00 01 | CRC16/MODBUS |
| í˜„ì¬ì˜¨ë„ | 108  | 01 03 00 6C 00 01 | CRC16/MODBUS |

**ì‘ë‹µ íŒ¨í‚· ì˜ˆì‹œ (ìš´ì „ìƒíƒœ: ON, ì„¤ì •ì˜¨ë„: 25ë„, í˜„ì¬ì˜¨ë„: 23.5ë„):**

```
01 03 06 00 01 00 32 00 2F 94 40
```

**ì‘ë‹µ íŒ¨í‚· í•´ì„:**

- `01`: Slave ID
- `03`: Function Code (Read Holding Registers)
- `06`: ë°”ì´íŠ¸ ìˆ˜ (6ë°”ì´íŠ¸ = 3ê°œ ë ˆì§€ìŠ¤í„° Ã— 2ë°”ì´íŠ¸)
- `00 01`: ìš´ì „ìƒíƒœ = 1 (ON)
- `00 32`: ì„¤ì •ì˜¨ë„ = 50 (25ë„ Ã— 2)
- `00 2F`: í˜„ì¬ì˜¨ë„ = 47 (23.5ë„ Ã— 2)
- `94 40`: CRC-16

## 6. DDC ì‹œê°„ ì„¤ì •/ì½ê¸° íŒ¨í‚·

### 6.1 DDC ì‹œê°„ ì½ê¸° íŒ¨í‚·

**ìš”ì²­ íŒ¨í‚· (Function Code 03 - Read Holding Registers):**

| í•­ëª© | ì£¼ì†Œ | ìš”ì²­ íŒ¨í‚· (Hex)   | CRC-16       |
| ---- | ---- | ----------------- | ------------ |
| ë…„   | 1    | 01 03 00 01 00 01 | CRC16/MODBUS |
| ì›”   | 2    | 01 03 00 02 00 01 | CRC16/MODBUS |
| ì¼   | 3    | 01 03 00 03 00 01 | CRC16/MODBUS |
| ì‹œ   | 4    | 01 03 00 04 00 01 | CRC16/MODBUS |
| ë¶„   | 5    | 01 03 00 05 00 01 | CRC16/MODBUS |

### 6.2 DDC ì‹œê°„ ì„¤ì • íŒ¨í‚·

**ìš”ì²­ íŒ¨í‚· (Function Code 06 - Write Single Register):**

| í•­ëª© | ì£¼ì†Œ | ê°’   | ìš”ì²­ íŒ¨í‚· (Hex)   | CRC-16       |
| ---- | ---- | ---- | ----------------- | ------------ |
| ë…„   | 1    | 2021 | 01 06 00 01 07 E5 | CRC16/MODBUS |
| ì›”   | 2    | 8    | 01 06 00 02 00 08 | CRC16/MODBUS |
| ì¼   | 3    | 15   | 01 06 00 03 00 0F | CRC16/MODBUS |
| ì‹œ   | 4    | 9    | 01 06 00 04 00 09 | CRC16/MODBUS |
| ë¶„   | 5    | 30   | 01 06 00 05 00 1E | CRC16/MODBUS |

**ì‘ë‹µ íŒ¨í‚· (ì„±ê³µ ì‹œ):**

```
01 06 00 01 07 E5 71 4A
```

**DDC ì‹œê°„ ë™ì‘ ì›ë¦¬:**

1. **ì‹œê°„ ì½ê¸°**: ì£¼ì†Œ 1-5ì—ì„œ í˜„ì¬ DDC ì‹œìŠ¤í…œ ì‹œê°„ ì½ê¸°
2. **ì‹œê°„ ì„¤ì •**: ì£¼ì†Œ 1-5ì—ì„œ DDC ì‹œìŠ¤í…œ ì‹œê°„ ì„¤ì •
3. **ìë™ ë™ê¸°í™”**: ì„¤ì •ëœ ì‹œê°„ì„ ê¸°ì¤€ìœ¼ë¡œ ìŠ¤ì¼€ì¤„ ë° ê³„ì ˆ ì„¤ì • ìë™ ì ìš©

## 9. í…ŒìŠ¤íŠ¸ ì‹œë‚˜ë¦¬ì˜¤

### 7.1 ê¸°ë³¸ ì—°ê²° í…ŒìŠ¤íŠ¸

**Slave ID í™•ì¸:**

```
01 03 00 00 00 01 84 0A
```

**ì‘ë‹µ (Slave ID 1ì´ ì¡´ì¬í•  ë•Œ):**

```
01 03 02 00 01 84 0A
```

### 7.2 DO ì œì–´ í…ŒìŠ¤íŠ¸ ì‹œë‚˜ë¦¬ì˜¤

1. **DO1 ëª¨ë“œë¥¼ ìŠ¤ì¼€ì¤„ë¡œ ì„¤ì •**

   ```
   ìš”ì²­: 01 06 01 60 00 01 49 E8
   ì‘ë‹µ: 01 06 01 60 00 01 49 E8
   ```

2. **DO1 ìŠ¤ì¼€ì¤„ì„ 9ì‹œ~18ì‹œë¡œ ì„¤ì •**

```
ì‹œì‘ì‹œ: 01 06 00 2A 00 09 68 04
ì‹œì‘ë¶„: 01 06 00 3A 00 00 A9 C7
ì¢…ë£Œì‹œ: 01 06 00 4A 00 12 28 11
ì¢…ë£Œë¶„: 01 06 00 5A 00 00 A9 D9
```

3. **DO1 ìƒíƒœ í™•ì¸**
   ```
   ìš”ì²­: 01 03 03 35 00 01 94 40
   ì‘ë‹µ: 01 03 02 00 01 79 84 (ìš´ì „ ì¤‘)
   ```

### 7.3 HVAC í…ŒìŠ¤íŠ¸ ì‹œë‚˜ë¦¬ì˜¤

1. **HVAC ëª¨ë“œ ì½ê¸°**

   ```
   ìš”ì²­: 01 03 00 74 00 01 C4 10
   ì‘ë‹µ: 01 03 02 00 03 F8 45 (ìë™ëª¨ë“œ)
   ```

2. **í˜„ì¬ ì˜¨ë„ ì½ê¸°**
   ```
   ìš”ì²­: 01 03 00 78 00 01 04 13
   ì‘ë‹µ: 01 03 02 00 17 F8 4A (23ë„)
   ```

### 7.4 ì„¼ì„œ í…ŒìŠ¤íŠ¸ ì‹œë‚˜ë¦¬ì˜¤

1. **PM2.5 ì½ê¸°**

   ```
   ìš”ì²­: 01 03 00 87 00 01 34 23
   ì‘ë‹µ: 01 03 02 00 19 79 8E (25 Î¼g/mÂ³)
   ```

2. **CO2 ì½ê¸°**
   ```
   ìš”ì²­: 01 03 00 89 00 01 55 E0
   ì‘ë‹µ: 01 03 02 01 C2 38 45 (450 ppm)
   ```

### 7.5 DDC ì‹œê°„ í…ŒìŠ¤íŠ¸ ì‹œë‚˜ë¦¬ì˜¤

1. **DDC í˜„ì¬ ì‹œê°„ ì½ê¸°**

   ```
   ë…„ ì½ê¸°: 01 03 00 01 00 01 D5 CA
   ì‘ë‹µ: 01 03 02 07 E5 D5 CA (2021ë…„)

   ì›” ì½ê¸°: 01 03 00 02 00 01 25 CA
   ì‘ë‹µ: 01 03 02 00 08 25 CA (8ì›”)

   ì‹œ ì½ê¸°: 01 03 00 04 00 01 C5 CB
   ì‘ë‹µ: 01 03 02 00 09 C5 CB (9ì‹œ)
   ```

2. **DDC ì‹œê°„ ì„¤ì •**

   ```
   ë…„ ì„¤ì •: 01 06 00 01 07 E5 71 4A
   ì‘ë‹µ: 01 06 00 01 07 E5 71 4A (2021ë…„ ì„¤ì • ì„±ê³µ)

   ì‹œ ì„¤ì •: 01 06 00 04 00 09 C4 4B
   ì‘ë‹µ: 01 06 00 04 00 09 C4 4B (9ì‹œ ì„¤ì • ì„±ê³µ)

   ë¶„ ì„¤ì •: 01 06 00 05 00 1E 84 4A
   ì‘ë‹µ: 01 06 00 05 00 1E 84 4A (30ë¶„ ì„¤ì • ì„±ê³µ)
   ```

## 10. CRC-16 ê³„ì‚° ë„êµ¬

### 8.1 ì˜¨ë¼ì¸ CRC ê³„ì‚°ê¸°

- [CRC-16 Modbus ê³„ì‚°ê¸°](https://www.lammertbies.nl/comm/info/crc-calculation.html)
- [Modbus CRC ê³„ì‚°ê¸°](https://www.modbustools.com/crc16.html)

### 8.2 Python CRC ê³„ì‚° ì½”ë“œ

```python
def crc16_modbus(data):
    crc = 0xFFFF
    for byte in data:
        crc ^= byte
        for _ in range(8):
            if crc & 0x0001:
                crc = (crc >> 1) ^ 0xA001
            else:
                crc >>= 1
    return crc

# ì‚¬ìš© ì˜ˆì‹œ
data = [0x01, 0x06, 0x01, 0x60, 0x00, 0x01]
crc = crc16_modbus(data)
print(f"CRC: 0x{crc:04X}")
```

### 8.3 JavaScript CRC ê³„ì‚° ì½”ë“œ

```javascript
function crc16Modbus(data) {
  let crc = 0xffff;
  for (let i = 0; i < data.length; i++) {
    crc ^= data[i];
    for (let j = 0; j < 8; j++) {
      if (crc & 0x0001) {
        crc = (crc >> 1) ^ 0xa001;
      } else {
        crc >>= 1;
      }
    }
  }
  return crc;
}

// ì‚¬ìš© ì˜ˆì‹œ
const data = [0x01, 0x06, 0x01, 0x60, 0x00, 0x01];
const crc = crc16Modbus(data);
console.log(`CRC: 0x${crc.toString(16).toUpperCase()}`);
```

## 11. ë¬¸ì œ í•´ê²°

### 9.1 ì¼ë°˜ì ì¸ ì˜¤ë¥˜ ì½”ë“œ

| ì˜¤ë¥˜ ì½”ë“œ | ì„¤ëª…                 | í•´ê²° ë°©ë²•                   |
| --------- | -------------------- | --------------------------- |
| 0x01      | Illegal Function     | ì§€ì›í•˜ì§€ ì•ŠëŠ” Function Code |
| 0x02      | Illegal Data Address | ì¡´ì¬í•˜ì§€ ì•ŠëŠ” ì£¼ì†Œ          |
| 0x03      | Illegal Data Value   | ì˜ëª»ëœ ë°ì´í„° ê°’            |
| 0x04      | Slave Device Failure | ìŠ¬ë ˆì´ë¸Œ ì¥ì¹˜ ì˜¤ë¥˜          |
| 0x06      | Slave Device Busy    | ìŠ¬ë ˆì´ë¸Œ ì¥ì¹˜ ì‚¬ìš© ì¤‘       |

### 9.2 ë””ë²„ê¹… íŒ

1. **CRC ì˜¤ë¥˜**: íŒ¨í‚·ì˜ CRC-16 ê°’ì„ ë‹¤ì‹œ ê³„ì‚°í•˜ì—¬ í™•ì¸
2. **ì‘ë‹µ ì—†ìŒ**: Slave ID, í†µì‹  ì„¤ì •(baudrate, parity) í™•ì¸
3. **ì˜ëª»ëœ ì‘ë‹µ**: Function Codeì™€ ì£¼ì†Œ ë§¤í•‘ í™•ì¸
4. **íƒ€ì„ì•„ì›ƒ**: í†µì‹  ì†ë„ì™€ ì¼€ì´ë¸” ìƒíƒœ í™•ì¸

### 9.3 í…ŒìŠ¤íŠ¸ ìˆœì„œ

1. **ê¸°ë³¸ ì—°ê²° í™•ì¸**: Slave ID ì¡´ì¬ ì—¬ë¶€ í™•ì¸
2. **ì½ê¸° í…ŒìŠ¤íŠ¸**: ê°„ë‹¨í•œ ë ˆì§€ìŠ¤í„° ì½ê¸°ë¡œ í†µì‹  í™•ì¸
3. **ì“°ê¸° í…ŒìŠ¤íŠ¸**: ë‹¨ì¼ ë ˆì§€ìŠ¤í„° ì“°ê¸°ë¡œ ì œì–´ í™•ì¸
4. **ë³µí•© í…ŒìŠ¤íŠ¸**: ì—¬ëŸ¬ ëª…ë ¹ì–´ë¥¼ ìˆœì°¨ì ìœ¼ë¡œ ì‹¤í–‰

## 12. ì°¸ê³  ìë£Œ

- [SNGIL DDC Commands](./SNGIL_DDC_COMMANDS.md) - SNGIL DDC ëª…ë ¹ì–´ ëª…ì„¸
- [Device Unit Spec](./DEVICE_UNIT_SPEC.md) - ì¥ë¹„ ë° ìœ ë‹› ì‚¬ì–‘ì„œ (í†µí•©ì„¼ì„œ ì •ë³´ í¬í•¨)
- [Modbus RTU í‘œì¤€](https://modbus.org/docs/Modbus_over_serial_line_V1_02.pdf)

---

> ğŸ’¡ **ì£¼ì˜ì‚¬í•­**: ì´ ë¬¸ì„œì˜ íŒ¨í‚·ì€ í…ŒìŠ¤íŠ¸ ëª©ì ìœ¼ë¡œë§Œ ì‚¬ìš©í•˜ì„¸ìš”. ì‹¤ì œ ìš´ì˜ í™˜ê²½ì—ì„œëŠ” ì¥ë¹„ì˜ ì •í™•í•œ ì‚¬ì–‘ì„œë¥¼ ì°¸ì¡°í•˜ì„¸ìš”.
